"Volt","Freq","Zreal","Zimag","Zreal_pred","Zimag_pred"
3.177,3984,0.01261,-0.001153,0.0113643097290056,-0.001198
3.177,3171,0.01273,-0.0005522,0.0114341197401946,-0.0005283
3.177,2528,0.01288,-3.994e-05,0.011564970632939,8.187e-05
3.177,1976,0.01308,0.0004473,0.0117750437249612,0.00047485
3.177,1578,0.01331,0.0008298,0.0119901144557875,0.0009106
3.177,1266,0.01355,0.001153,0.0122426441924056,0.00123075
3.177,998.3,0.01385,0.001464,0.0125850685810204,0.00152825
3.177,796.9,0.01416,0.001721,0.0128929015709986,0.00165675
3.177,505.5,0.01488,0.002152,0.0136436725259303,0.0021955
3.177,398,0.01529,0.002326,0.0140202668313017,0.0023605
3.177,315.5,0.0157,0.002464,0.0144787866216119,0.00249025
3.177,252.4,0.01611,0.002569,0.0148555496329834,0.0025915
3.177,198.6,0.01655,0.002659,0.0153327980266023,0.002676
3.177,158.4,0.01696,0.002727,0.0157258200849247,0.00274275
3.177,125.6,0.01738,0.00279,0.016185073387576,0.0028045
3.177,100.4,0.01778,0.002848,0.016578002509421,0.00286475
3.177,79,0.0182,0.002915,0.0170549272737992,0.00293075
3.177,63.34,0.01859,0.002978,0.0174010543575956,0.002998
3.177,50.22,0.01899,0.003058,0.017697191949002,0.0030875
3.177,38.42,0.01943,0.003176,0.0182967165911968,0.003206
3.177,31.25,0.01977,0.003296,0.0185881094789944,0.00333575
3.177,24.93,0.02011,0.003455,0.0189820578664878,0.00341525
3.177,15.63,0.02095,0.004049,0.0197656111847859,0.0041545
3.177,12.4,0.02127,0.004471,0.0202217974535387,0.004605
3.177,9.931,0.02163,0.005007,0.0205690857659502,0.004873
3.177,6.317,0.02245,0.006536,0.0216015501448233,0.0068035
3.177,5.008,0.02296,0.007606,0.0221236116703166,0.0079455
3.177,3.946,0.02365,0.008964,0.0231878863662111,0.0086245
3.177,2.504,0.02552,0.01235,0.0252326016950274,0.0128875
3.177,1.998,0.02681,0.0145,0.0267017924793695,0.0151325
3.177,1.585,0.0285,0.01703,0.0286985044019302,0.01772
3.177,1.267,0.03059,0.01979,0.0307001814765527,0.020595
3.177,0.999,0.03339,0.02301,0.0336922661377488,0.0238525
3.177,0.7923,0.03684,0.02638,0.0370712037622854,0.0272125
3.177,0.6334,0.0409,0.02971,0.0416040337251342,0.0305425
3.177,0.504,0.04586,0.03304,0.0464351592596709,0.0322075
3.177,0.3167,0.05821,0.03869,0.0595342885298442,0.03917
3.177,0.252,0.06514,0.04061,0.0651311758655921,0.0409075
3.177,0.2003,0.07234,0.0418,0.0720642886097056,0.0419025
3.177,0.1589,0.07948,0.04221,0.0794482999563872,0.042205
3.177,0.126,0.08663,0.04219,0.0862245540358735,0.04208
3.177,0.1002,0.09336,0.04175,0.0930872132263765,0.0415875
3.177,0.07945,0.09978,0.0411,0.0994175013691001,0.0408425
3.177,0.06317,0.1052,0.04007,0.104737299058182,0.0398725
3.177,0.05013,0.1104,0.03928,0.10986514814428,0.0391575
3.177,0.03983,0.1153,0.03879,0.114308983498995,0.0389125
3.177,0.02512,0.1239,0.03901,0.124324868801111,0.039665
3.177,0.01585,0.1321,0.04163,0.132365686396985,0.0422325
3.177,0.01259,0.1363,0.04404,0.136181359080294,0.044825
3.177,0.01,0.1405,0.04718,0.139745801078776,0.046395
3.177,0.005012,0.1538,0.06226,0.154619933111193,0.06417
3.177,0.003981,0.1583,0.0699,0.158368935048638,0.072285
3.177,0.003162,0.1626,0.07944,0.162655130021483,0.08242
3.177,0.002512,0.1665,0.09136,0.166723940298014,0.09512
3.177,0.001995,0.1702,0.1064,0.170751842974357,0.1112
3.177,0.001585,0.174,0.1256,0.174762511454577,0.131625
3.177,0.001259,0.1779,0.1497,0.179442246721895,0.1574
3.177,0.001,0.183,0.1805,0.185809760176894,0.19015
3.177,0.0007943,0.1883,0.2191,0.191143413628354,0.231675
3.177,0.0006275,0.1956,0.2694,0.199136453482507,0.256825
3.177,0.0003165,0.2244,0.5035,0.231724208287384,0.533675
3.177,0.0002519,0.2382,0.6242,0.24289438004247,0.662325
3.177,0.0001998,0.251,0.7767,0.25205770957211,0.823
3.177,0.0001583,0.2465,0.9619,0.260202801551888,1.021175
3.177,0.0001259,0.2696,1.199,0.280284208480164,1.274
3.177,9.99e-05,0.2946,1.499,0.301422999003872,1.424
3.177,6.308e-05,0.3444,2.332,0.370419663360678,2.47925
3.177,5.009e-05,0.3954,2.921,0.413989029706516,3.10275
3.177,3.983e-05,0.4363,3.648,0.458359607997126,3.87875
3.177,3.162e-05,0.5085,4.571,0.507386431665169,4.863
3.177,2.512e-05,0.5258,5.739,0.560946809903803,6.09925
3.177,1.995e-05,0.6174,7.18,0.624096893980418,7.63175
3.177,1.585e-05,0.7392,8.987,0.67706449954031,9.50025
3.177,1.259e-05,0.6403,11.04,0.699273936083611,11.8125
3.177,9.999e-06,0.8774,14.13,0.744308158372856,13.3575
3.387,3171,0.01255,-0.0004566,0.0113199024898373,-0.0004805
3.387,1976,0.01293,0.0005575,0.0116588832199301,0.00052995
3.387,1578,0.01316,0.0009599,0.0118711668273457,0.001045675
3.387,1266,0.01342,0.001303,0.0120994144295829,0.00138675
3.387,998.3,0.01374,0.001638,0.0124403129185386,0.001709
3.387,796.9,0.01407,0.001922,0.0127660594348472,0.00199025
3.387,627.8,0.01446,0.002195,0.0131051159150072,0.00224925
3.387,505.5,0.01484,0.002412,0.0135446565966102,0.002464
3.387,398,0.01529,0.00262,0.0139866722078369,0.00266325
3.387,315.5,0.01576,0.002793,0.0144984018959389,0.00282775
3.387,252.4,0.01623,0.002932,0.0148925995679943,0.00296125
3.387,198.6,0.01674,0.003049,0.0153902060266105,0.0030705
3.387,158.4,0.01723,0.003135,0.0158399742469835,0.0031515
3.387,125.6,0.01773,0.003201,0.0163059881520309,0.0031845
3.387,79,0.01871,0.003296,0.0172700706645762,0.00330575
3.387,63.34,0.01916,0.003335,0.0177394437374567,0.00332525
3.387,38.42,0.02011,0.003465,0.0187614876618151,0.00348925
3.387,31.25,0.02048,0.003562,0.0190936411388594,0.00359975
3.387,24.93,0.02087,0.003713,0.019575072218193,0.00377325
3.387,19.86,0.02136,0.003954,0.0199602082425262,0.00389375
3.387,12.4,0.02218,0.004717,0.0209746096362578,0.0048475
3.387,9.931,0.02263,0.005239,0.0214157340374016,0.0054015
3.387,7.945,0.02321,0.005889,0.022023032799121,0.00608475
3.387,6.317,0.02389,0.006672,0.0228278224990858,0.0069
3.387,5.008,0.0248,0.007584,0.0235664888662989,0.0078395
3.387,3.946,0.02598,0.008606,0.0249887901997486,0.00885025
3.387,3.159,0.02735,0.009583,0.0262969637369906,0.00933875
3.387,1.998,0.03102,0.01131,0.029747695356437,0.01145
3.387,1.585,0.03324,0.01187,0.031944835383966,0.01193
3.387,1.267,0.03551,0.01211,0.0338854594889688,0.0120875
3.387,0.999,0.03792,0.01202,0.0362420322875894,0.0119175
3.387,0.7923,0.04015,0.01161,0.0384707300621521,0.0114575
3.387,0.6334,0.04211,0.011,0.0409542733610219,0.010815
3.387,0.504,0.04385,0.01026,0.0426367226295664,0.010061
3.387,0.4006,0.04535,0.009464,0.0439844538951353,0.0092695
3.387,0.3167,0.04664,0.008686,0.0454764046558639,0.00852
3.387,0.252,0.04772,0.008022,0.0465897069726402,0.00788325
3.387,0.2003,0.04862,0.007467,0.0474941457092062,0.007361
3.387,0.1589,0.04943,0.007043,0.048227477795099,0.00697425
3.387,0.126,0.05018,0.006768,0.0487871454080999,0.0067375
3.387,0.1002,0.05091,0.006646,0.0495347110522959,0.0066765
3.387,0.06317,0.05219,0.006839,0.0511341432286571,0.00692225
3.387,0.05013,0.0529,0.007172,0.0518398824754859,0.007295
3.387,0.03983,0.0537,0.007664,0.0526497291888553,0.0078275
3.387,0.03163,0.05458,0.008318,0.0534988931276498,0.00852275
3.387,0.02512,0.0556,0.009137,0.0546140959140694,0.00938275
3.387,0.01996,0.05675,0.01012,0.0557484816674955,0.01041
3.387,0.01585,0.05807,0.01128,0.0572027671016267,0.0116125
3.387,0.01259,0.05954,0.01261,0.0585513885073422,0.01298
3.387,0.01,0.06117,0.01409,0.0597285039053235,0.01372
3.387,0.005012,0.06681,0.01958,0.0658028144570151,0.0201575
3.387,0.003981,0.06884,0.02189,0.067963069830659,0.0225525
3.387,0.003162,0.07084,0.02454,0.0698550887203449,0.0253225
3.387,0.002512,0.07304,0.02767,0.0718921568870727,0.0286175
3.387,0.001995,0.0753,0.03146,0.0738428051456127,0.0305125
3.387,0.001259,0.0799,0.0417,0.0793017522282672,0.043475
3.387,0.001,0.08237,0.0488,0.0818205855617313,0.051035
3.387,0.0007943,0.08522,0.05774,0.0848720676054753,0.0606175
3.387,0.0006275,0.08832,0.06925,0.0883802698599948,0.0725975
3.387,0.0005037,0.09156,0.08264,0.0915241826923628,0.087105
3.387,0.0003974,0.09541,0.1005,0.0957369563607854,0.10585
3.387,0.0003165,0.09904,0.1219,0.0991833271079329,0.128575
3.387,0.0002519,0.1018,0.1486,0.102255775253144,0.15735
3.387,0.0001998,0.108,0.1836,0.104450632026137,0.17485
3.387,9.99e-05,0.1305,0.3496,0.118435678234439,0.3081
3.65,3984,0.01203,-0.001333,0.0108365330849383,-0.00130025
3.65,3171,0.01213,-0.0007413,0.0109205096978435,-0.00070675
3.65,2528,0.01225,-0.0002394,0.0110451133533768,-0.000202455
3.65,1976,0.01243,0.0002345,0.0112499535381209,0.000272975
3.65,1578,0.01263,0.0006026,0.0114623119640035,0.0006796
3.65,1266,0.01284,0.0009106,0.011699398624056,0.00098345
3.65,998.3,0.01311,0.001202,0.0120148999250206,0.00126175
3.65,796.9,0.01339,0.001441,0.0122703072619364,0.00149625
3.65,627.8,0.01371,0.001662,0.0125914725748318,0.0017015
3.65,505.5,0.01403,0.00182,0.0129700765775041,0.00185625
3.65,398,0.0144,0.001965,0.0133859844744269,0.00192875
3.65,252.4,0.01512,0.002141,0.0141380030984532,0.0021545
3.65,198.6,0.0155,0.002195,0.0144879031937086,0.00220225
3.65,158.4,0.01585,0.002224,0.0148577955823495,0.0022285
3.65,125.6,0.01622,0.002242,0.0152525397844215,0.00224475
3.65,100.4,0.01656,0.002253,0.0155667174163654,0.0022535
3.65,79,0.01693,0.002255,0.0160748351196251,0.0022545
3.65,50.22,0.01762,0.00224,0.0168009936229821,0.002227
3.65,31.25,0.01835,0.002188,0.017604698775543,0.0021585
3.65,19.86,0.01905,0.00207,0.0182008679498509,0.002044
3.65,15.63,0.01941,0.001966,0.0184520895560357,0.001992
3.65,9.931,0.02,0.001702,0.0190613013612616,0.0016655
3.65,7.945,0.02023,0.001556,0.0192395853666861,0.00151925
3.65,6.317,0.02044,0.001409,0.0195317633511657,0.00137475
3.65,5.008,0.02062,0.001272,0.0197231910266622,0.00130625
3.65,3.159,0.02089,0.00105,0.0201791208354085,0.001026225
3.65,2.504,0.021,0.0009549,0.0202364228637008,0.00093965
3.65,1.998,0.02109,0.0008939,0.0204089174995626,0.00090915
3.65,1.267,0.02125,0.000835,0.0206346768331214,0.000834475
3.65,0.999,0.02133,0.0008329,0.0206162369662602,0.0008378
3.65,0.7923,0.02141,0.0008525,0.0208561392608337,0.0008476
3.65,0.4006,0.02166,0.00104,0.0209655263447346,0.001068
3.65,0.3167,0.02176,0.001152,0.021030138718387,0.0011865
3.65,0.252,0.02187,0.00129,0.0210688309778401,0.00133075
3.65,0.2003,0.022,0.001453,0.0212537490857009,0.00141225
3.65,0.1002,0.02256,0.002165,0.0219532700559877,0.00224725
3.65,0.07945,0.02279,0.002494,0.0219954230123589,0.0025885
3.65,0.06317,0.02298,0.002872,0.0222663005770113,0.00298225
3.65,0.05013,0.02328,0.003313,0.0225937667409299,0.0034395
3.65,0.03983,0.02364,0.003819,0.0228917325067661,0.0036925
3.65,0.02512,0.02456,0.005055,0.0240747418272723,0.005241
3.65,0.01996,0.02515,0.005799,0.0246684540054766,0.006005
3.65,0.01585,0.02586,0.006623,0.025443007442568,0.0068495
3.65,0.01259,0.02669,0.007529,0.0262962628915858,0.00777175
3.65,0.01,0.02767,0.0085,0.0272417878881094,0.008756
3.65,0.007944,0.02878,0.009524,0.0283379935056475,0.0097955
3.65,0.00631,0.03,0.01061,0.0296586003163783,0.0108975
3.65,0.005012,0.03133,0.01176,0.0313552949031469,0.01207
3.65,0.003981,0.03274,0.013,0.032607674399705,0.0133375
3.65,0.003162,0.0342,0.01435,0.0340567107119836,0.0147275
3.65,0.002512,0.03574,0.01586,0.035497565859241,0.01629
3.65,0.001995,0.0373,0.01758,0.0370038511429734,0.0180725
3.65,0.001585,0.03887,0.01955,0.0385544195987802,0.0201325
3.65,0.001259,0.04044,0.02188,0.040331292206248,0.02259
3.65,0.001,0.04201,0.02472,0.0421113599555258,0.025595
3.65,0.0007943,0.04358,0.02822,0.0437348582096314,0.0293725
3.65,0.0006275,0.04525,0.03283,0.045448904929408,0.0341825
3.65,0.0005037,0.04688,0.03824,0.0470869949519352,0.04008
3.65,0.0003974,0.04873,0.0456,0.0490625570378594,0.047875
3.65,0.0003165,0.05076,0.0547,0.051126924667862,0.0574875
3.65,0.0002519,0.05185,0.06585,0.0531987593545722,0.0694325
3.65,0.0001998,0.05356,0.08018,0.0557875743825354,0.0849675
3.65,0.0001583,0.05742,0.09933,0.059369810890192,0.1052725
3.65,0.0001259,0.06139,0.1231,0.0649183995882823,0.1171575
3.65,7.948e-05,0.0699,0.1905,0.0741545720416035,0.2023
3.65,6.308e-05,0.07463,0.2377,0.0797193389874526,0.252675
3.65,5.009e-05,0.08073,0.2976,0.0878576210324915,0.316575
3.65,3.983e-05,0.08909,0.3735,0.0966625163579304,0.3976
3.65,3.162e-05,0.09979,0.4699,0.109518850340401,0.50015
3.65,2.512e-05,0.1136,0.5909,0.123215258187939,0.629375
3.65,1.995e-05,0.1289,0.7448,0.138361011510062,0.791775
3.65,1.585e-05,0.1473,0.9327,0.151208036755108,0.991775
3.65,1.259e-05,0.1617,1.169,0.161969855432194,1.25
3.65,9.999e-06,0.2005,1.493,0.17225484782046,1.412
3.879,3984,0.01208,-0.001202,0.0108361512643424,-0.00123475
3.879,3171,0.01218,-0.0006031,0.0109208263007736,-0.00063765
3.879,2528,0.01232,-9.162e-05,0.0110563992458788,-0.000128565
3.879,1976,0.01252,0.0003884,0.0112590561406475,0.000349925
3.879,1578,0.01273,0.0007751,0.0114799014819103,0.000857575
3.879,1266,0.01297,0.001105,0.0117215786791529,0.001184
3.879,998.3,0.01326,0.001421,0.0120434896126153,0.00148625
3.879,796.9,0.01356,0.001682,0.0123163460069949,0.00174275
3.879,627.8,0.01392,0.001925,0.0126186788854669,0.00197425
3.879,505.5,0.01427,0.002122,0.0130570431005127,0.002167
3.879,398,0.01468,0.002302,0.0134766389377388,0.00233725
3.879,315.5,0.0151,0.002443,0.0139802775056632,0.0024695
3.879,252.4,0.01552,0.002549,0.0142974120448167,0.0025695
3.879,198.6,0.01597,0.002631,0.0147243437841636,0.00264425
3.879,158.4,0.0164,0.002684,0.0151727021252199,0.00269275
3.879,125.6,0.01684,0.002719,0.0155776863807828,0.002724
3.879,100.4,0.01726,0.002739,0.0159632227118063,0.002734
3.879,50.22,0.01852,0.002763,0.017238671366845,0.00276475
3.879,38.42,0.01899,0.00277,0.0178324356055696,0.00277225
3.879,31.25,0.01937,0.002779,0.0181123471433943,0.002781
3.879,24.93,0.01979,0.002787,0.0186715714740343,0.002787
3.879,19.86,0.02024,0.002787,0.0189871241641981,0.00277975
3.879,15.63,0.02073,0.002758,0.0193954517296054,0.002741
3.879,12.4,0.02119,0.00269,0.0199866669297426,0.00266375
3.879,9.931,0.02162,0.002585,0.0202530802415886,0.00261125
3.879,6.317,0.0224,0.002283,0.02110934478213,0.00216325
3.879,3.159,0.02323,0.001804,0.0221496666400718,0.0017735
3.879,2.504,0.02343,0.001682,0.022306295611201,0.0016605
3.879,1.998,0.02361,0.001596,0.022505843769468,0.0015825
3.879,1.585,0.02378,0.001542,0.0228508100865224,0.0015365
3.879,1.267,0.02393,0.00152,0.0229506418016274,0.001522
3.879,0.999,0.02409,0.001528,0.0230039058236554,0.0015385
3.879,0.7923,0.02424,0.00157,0.0233166244420298,0.0015595
3.879,0.504,0.02456,0.001751,0.0238109676814457,0.001786
3.879,0.4006,0.02474,0.001891,0.0238404412510797,0.0019375
3.879,0.3167,0.02494,0.002077,0.0240692132570978,0.00213275
3.879,0.252,0.02515,0.0023,0.0241499105029327,0.00236725
3.879,0.2003,0.02538,0.002569,0.0244221939357579,0.0026495
3.879,0.1589,0.02565,0.002891,0.0248592530477878,0.00298625
3.879,0.126,0.02597,0.003272,0.0251504981666254,0.003384
3.879,0.1002,0.02634,0.00372,0.0253243895489009,0.00385275
3.879,0.07945,0.02679,0.004251,0.0256248442894306,0.004403
3.879,0.06317,0.02706,0.004859,0.0261271712467532,0.004707
3.879,0.03983,0.02807,0.006415,0.0272066429485055,0.00665675
3.879,0.03163,0.02871,0.007382,0.027900046912876,0.00714025
3.879,0.01996,0.03031,0.009795,0.0296383229277757,0.01016625
3.879,0.01585,0.03136,0.01128,0.0306573723167142,0.0116925
3.879,0.01259,0.0326,0.01293,0.0318683642041502,0.0133825
3.879,0.01,0.03409,0.01474,0.0334996951197217,0.0152225
3.879,0.007944,0.03585,0.01667,0.0352470345172479,0.01718
3.879,0.00631,0.03791,0.01871,0.0374191514538832,0.019245
3.879,0.005012,0.04022,0.02085,0.0397466743729497,0.020315
3.879,0.003162,0.04546,0.02545,0.0449917381142513,0.0260775
3.879,0.002512,0.04825,0.02796,0.0478385596831613,0.0286525
3.879,0.001995,0.0511,0.03073,0.050614677417514,0.031505
3.879,0.001585,0.05395,0.03383,0.0533574002029839,0.034735
3.879,0.001259,0.05697,0.03745,0.0565000158185356,0.03853
3.879,0.001,0.06025,0.04177,0.0600250775177976,0.043055
3.879,0.0007943,0.0637,0.04691,0.0633741723888268,0.0484575
3.879,0.0006275,0.06733,0.0531,0.0670602501881505,0.0548675
3.879,0.0005037,0.07103,0.06017,0.0705419320822582,0.062515
3.879,0.0003974,0.07541,0.06955,0.0755473735430458,0.0723475
3.879,0.0003165,0.08003,0.08074,0.0796768440903355,0.083935
3.879,0.0002519,0.08327,0.09352,0.0834373414085786,0.097565
3.879,0.0001998,0.08656,0.1097,0.0872703921264324,0.1152
3.879,0.0001583,0.09227,0.1317,0.093230151469879,0.13865
3.879,0.0001259,0.09951,0.1595,0.100116603481238,0.15255
3.879,7.948e-05,0.113,0.2368,0.112885376392984,0.25005
3.879,6.308e-05,0.1174,0.2898,0.120016183287113,0.307025
3.879,5.009e-05,0.1249,0.3587,0.127830527286987,0.38025
3.879,3.983e-05,0.1337,0.4449,0.135149168397086,0.472325
3.879,3.162e-05,0.1417,0.5546,0.143340434319865,0.527175
3.879,1.995e-05,0.1718,0.8691,0.164463213974283,0.992325
3.879,1.259e-05,0.2073,1.362,0.181082255612644,1.238775
4.187,3984,0.0123,-0.001051,0.0109206597794483,-0.0011185
4.187,2528,0.01259,8.407e-05,0.0111566411801566,1.52275e-05
4.187,1578,0.01305,0.0009889,0.0116149729176537,0.000912725
4.187,1266,0.01331,0.001335,0.0118620762972562,0.00125425
4.187,998.3,0.01363,0.001677,0.0122425107984977,0.00174975
4.187,796.9,0.01397,0.001968,0.0124864238641268,0.0018695
4.187,505.5,0.01476,0.002472,0.0132727147503036,0.00235075
4.187,398,0.01522,0.002691,0.0137234059083857,0.0025545
4.187,315.5,0.0157,0.00287,0.0142436678349191,0.00271875
4.187,252.4,0.01619,0.003009,0.0146657025645757,0.00284475
4.187,198.6,0.01672,0.003122,0.0151617596153328,0.00294575
4.187,158.4,0.01723,0.003197,0.0156399343142837,0.00301325
4.187,125.6,0.01775,0.003246,0.0161895809806564,0.00305875
4.187,100.4,0.01824,0.003272,0.0166251473098536,0.003085
4.187,79,0.01874,0.003289,0.0170851936946064,0.00310675
4.187,50.22,0.01962,0.003325,0.017889849318836,0.00316075
4.187,38.42,0.02007,0.003393,0.018521319098539,0.003416
4.187,31.25,0.0204,0.003485,0.0187972382558072,0.00352825
4.187,24.93,0.02074,0.003658,0.0192539203173556,0.003728
4.187,19.86,0.02119,0.003938,0.019620354704392,0.00403825
4.187,15.63,0.02151,0.004339,0.019969341248978,0.0044715
4.187,12.4,0.0219,0.004869,0.0204638940741828,0.005031
4.187,9.931,0.02233,0.005517,0.0207880904646968,0.00571725
4.187,7.945,0.02291,0.006318,0.0213024089899688,0.0065605
4.187,6.317,0.02369,0.007288,0.022057533978975,0.0070455
4.187,3.946,0.02612,0.009614,0.0247390393450427,0.0098905
4.187,3.159,0.02777,0.01072,0.0261750559258981,0.0109675
4.187,2.504,0.02987,0.01171,0.0281786690972321,0.0114625
4.187,1.585,0.03479,0.01269,0.0334660177844997,0.012655
4.187,1.267,0.0373,0.01255,0.0353764710477773,0.01241
4.187,0.999,0.03979,0.01199,0.0375738917626526,0.01213
4.187,0.6334,0.04362,0.01017,0.042014382873497,0.00992075
4.187,0.504,0.04503,0.009173,0.0435925499689574,0.00894025
4.187,0.4006,0.04615,0.008242,0.0445011934830308,0.0080375
4.187,0.3167,0.04707,0.007424,0.0454643406261602,0.0072665
4.187,0.252,0.04779,0.006794,0.0460640786560516,0.0069515
4.187,0.1589,0.04891,0.006033,0.0475741645882383,0.0060045
4.187,0.126,0.04945,0.005919,0.0481299039965567,0.0059335
4.187,0.1002,0.04996,0.005977,0.0486576070736244,0.006033
4.187,0.07945,0.05053,0.006201,0.0491609953432361,0.006294
4.187,0.06317,0.05086,0.006573,0.0495400648796861,0.0067105
4.187,0.05013,0.05141,0.007123,0.0502541225104043,0.00729975
4.187,0.03983,0.05205,0.00783,0.0509203384984446,0.008051
4.187,0.03163,0.05278,0.008714,0.0515821247359287,0.008978
4.187,0.02512,0.05364,0.00977,0.0523564062926203,0.009506
4.187,0.01585,0.05584,0.01246,0.0549762647511245,0.012875
4.187,0.01259,0.05721,0.01412,0.0560780276986864,0.01459
4.187,0.01,0.0588,0.016,0.0575325699452361,0.0165225
4.187,0.007944,0.06063,0.01809,0.0594843421240409,0.0186725
4.187,0.00631,0.06267,0.02042,0.0611872841620757,0.02107
4.187,0.005012,0.06489,0.02302,0.0634737441006028,0.0237625
4.187,0.003981,0.06726,0.02599,0.0658804344575599,0.026855
4.187,0.003162,0.0696,0.02945,0.0681179029357485,0.0304875
4.187,0.002512,0.07212,0.0336,0.070827267248143,0.034875
4.187,0.001995,0.0748,0.0387,0.0733092449552376,0.04027
4.187,0.001585,0.07758,0.04498,0.0754140677520461,0.04341
4.187,0.001,0.08394,0.06249,0.0823050951045443,0.06551
4.187,0.0007943,0.08754,0.07457,0.0853956786220978,0.0784525
