"Volt","Freq","Zreal","Zimag","Zreal_preds","Zimag_preds"
3.177,10080,0.01258,-0.00491,0.0104340904255138,-0.00449675152870088
3.177,8016,0.01253,-0.003743,0.0104304412193649,-0.00333088052441953
3.177,6328,0.01251,-0.002711,0.0104378940531739,-0.00231484333631684
3.177,5016,0.01254,-0.001863,0.0104686905785309,-0.00148535490124303
3.177,3984,0.01261,-0.001153,0.0105434444522906,-0.00079351515735833
3.177,3171,0.01273,-0.0005522,0.0106368477129703,-0.000531490535714286
3.177,2528,0.01288,-3.994e-05,0.010775099782338,-1.43937238493725e-05
3.177,1976,0.01308,0.0004473,0.0109788489103999,0.000465424715789474
3.177,1578,0.01331,0.0008298,0.011209583086226,0.000842889577464789
3.177,1266,0.01355,0.001153,0.0114660775636881,0.00117113241331723
3.177,998.3,0.01385,0.001464,0.0117927196642965,0.00147713898955447
3.177,796.9,0.01416,0.001721,0.0121009730886205,0.00173579487179487
3.177,627.8,0.01452,0.001964,0.0124292437670589,0.00197111015785861
3.177,505.5,0.01488,0.002152,0.0128530353697805,0.00215665709312446
3.177,398,0.01529,0.002326,0.0132701002190455,0.00232852631578947
3.177,315.5,0.0157,0.002464,0.0137143401902923,0.00246368887362637
3.177,252.4,0.01611,0.002569,0.0141351970099655,0.00256925662959795
3.177,198.6,0.01655,0.002659,0.0146191143409614,0.00265942978723404
3.177,158.4,0.01696,0.002727,0.015056645564455,0.0027311397260274
3.177,125.6,0.01738,0.00279,0.0155025641472565,0.0027954275862069
3.177,100.4,0.01778,0.002848,0.015818292399698,0.0028575965665236
3.177,79,0.0182,0.002915,0.0163233810633312,0.00292306745817593
3.177,63.34,0.01859,0.002978,0.0167200213415412,0.00299281028492008
3.177,50.22,0.01899,0.003058,0.0170543501749508,0.00308224398073836
3.177,38.42,0.01943,0.003176,0.0176568269196258,0.0032060442804428
3.177,31.25,0.01977,0.003296,0.0179491570118669,0.00332428984432913
3.177,24.93,0.02011,0.003455,0.0183940306832243,0.00352793678665496
3.177,19.86,0.02057,0.003714,0.0188210593345636,0.00377882580645161
3.177,15.63,0.02095,0.004049,0.0191116848259354,0.00414323726541555
3.177,12.4,0.02127,0.004471,0.0195861600700353,0.00459196192314441
3.177,9.931,0.02163,0.005007,0.0198822638328128,0.0051421468013468
3.177,7.945,0.02202,0.005682,0.0204958423254176,0.00584723076923077
3.177,6.317,0.02245,0.006536,0.0209714548634739,0.00674848689138577
3.177,5.008,0.02296,0.007606,0.0215118867524752,0.00787646900042176
3.177,3.946,0.02365,0.008964,0.0226919033947702,0.00926821092482423
3.177,3.159,0.02447,0.0105,0.0237453806556849,0.0108119764216366
3.177,2.504,0.02552,0.01235,0.02462066499749,0.0127566752799311
3.177,1.998,0.02681,0.0145,0.026095506677726,0.0149268008705114
3.177,1.585,0.0285,0.01703,0.0280607634621874,0.0174887414500684
3.177,1.267,0.03059,0.01979,0.0304810055499275,0.0202751194539249
3.177,0.999,0.03339,0.02301,0.033398245048394,0.0235104971560986
3.177,0.7923,0.03684,0.02638,0.0369447310379617,0.0267979923413567
3.177,0.6334,0.0409,0.02971,0.042300873486514,0.0300507388137357
3.177,0.504,0.04586,0.03304,0.046593210458095,0.0332507130584192
3.177,0.4006,0.05161,0.03608,0.0533541581377276,0.0361591137213027
3.177,0.3167,0.05821,0.03869,0.0591027108087088,0.0386376514131898
3.177,0.252,0.06514,0.04061,0.0650045457608372,0.0404186683848797
3.177,0.2003,0.07234,0.0418,0.0727776921419526,0.0414985069817401
3.177,0.1589,0.07948,0.04221,0.0799871488229491,0.0420173082099596
3.177,0.126,0.08663,0.04219,0.0871179061081288,0.0419521805792164
3.177,0.1002,0.09336,0.04175,0.0939718406517291,0.0415858754027927
3.177,0.07945,0.09978,0.0411,0.100024973942312,0.0408086011342155
3.177,0.06317,0.1052,0.04007,0.105621262460784,0.0400894406548431
3.177,0.05013,0.1104,0.03928,0.111230578539667,0.0393548671808055
3.177,0.03983,0.1153,0.03879,0.114933411323211,0.0389236756756757
3.177,0.03163,0.1197,0.03864,0.120485279610359,0.0389126376614548
3.177,0.02512,0.1239,0.03901,0.125508548211342,0.0393819280205656
3.177,0.01996,0.128,0.03997,0.130511876151193,0.0404683818770227
3.177,0.01585,0.1321,0.04163,0.134471682447124,0.0422397014925373
3.177,0.01259,0.1363,0.04404,0.137940371059436,0.0447228205128205
3.177,0.01,0.1405,0.04718,0.14073934800575,0.048009177787344
3.177,0.007944,0.1448,0.05116,0.144677152942482,0.0521834905149052
3.177,0.00631,0.1494,0.05616,0.151164497437171,0.0573460163710778
3.177,0.005012,0.1538,0.06226,0.156043738863723,0.0638175869471876
3.177,0.003981,0.1583,0.0699,0.16032455615577,0.0718343675675676
3.177,0.003162,0.1626,0.07944,0.165110120519413,0.0818644247787611
3.177,0.002512,0.1665,0.09136,0.169393375520865,0.0944562810625535
3.177,0.001995,0.1702,0.1064,0.173314942685995,0.110456094929881
3.177,0.001585,0.174,0.1256,0.177632375243022,0.130520923913043
3.177,0.001259,0.1779,0.1497,0.182323181705793,0.156193846153846
3.177,0.001,0.183,0.1805,0.18790138532687,0.188380008607704
3.177,0.0007943,0.1883,0.2191,0.193913090676654,0.22959189261745
3.177,0.0006275,0.1956,0.2694,0.200941180501974,0.281893943565038
3.177,0.0005037,0.2049,0.3285,0.211772712365607,0.343916731855715
3.177,0.0003974,0.2142,0.4079,0.226782091661681,0.427872329059829
3.177,0.0003165,0.2244,0.5035,0.234889492294686,0.528165773195876
3.177,0.0002519,0.2382,0.6242,0.245737348711141,0.654731533847472
3.177,0.0001998,0.251,0.7767,0.254401044273424,0.812171901709402
3.177,0.0001583,0.2465,0.9619,0.264554672249725,1.01385087956698
3.177,0.0001259,0.2696,1.199,0.285315803244741,1.2598801369863
3.177,9.99e-05,0.2946,1.499,0.309521446537534,1.57090866006032
3.177,7.948e-05,0.3114,1.863,0.342204843434842,1.96097338403042
3.177,6.308e-05,0.3444,2.332,0.373507672096614,2.45337767948282
3.177,5.009e-05,0.3954,2.921,0.416723390068737,3.06726193548387
3.177,3.983e-05,0.4363,3.648,0.461271918321826,3.83756740660531
3.177,3.162e-05,0.5085,4.571,0.521856716227512,4.81503670972128
3.177,2.512e-05,0.5258,5.739,0.563273004164304,6.0241705227078
3.177,1.995e-05,0.6174,7.18,0.64095284590962,7.55045199568501
3.177,1.585e-05,0.7392,8.987,0.689762292557395,9.33027173913043
3.177,1.259e-05,0.6403,11.04,0.706887074342345,11.8525238420783
3.177,9.999e-06,0.8774,14.13,0.762597179051245,10.4098977730396
3.387,10080,0.01235,-0.004832,0.0102182143957071,-0.00498680761099366
3.387,8016,0.01233,-0.003668,0.0102176577201205,-0.00381669978858351
3.387,6328,0.0123,-0.002631,0.0102303676516722,-0.00278514376321353
3.387,5016,0.01234,-0.001781,0.0102639120024191,-0.00148779435715078
3.387,3984,0.01243,-0.001066,0.0103524219717166,-0.000783676441386417
3.387,3171,0.01255,-0.0004566,0.0104367835629303,-0.000434674230769231
3.387,2528,0.01271,6.464e-05,0.0105905137527429,8.90621757322176e-05
3.387,1976,0.01293,0.0005575,0.0108402543693254,0.000584833178947369
3.387,1578,0.01316,0.0009599,0.0110886533329765,0.0009754
3.387,1266,0.01342,0.001303,0.0113367553059652,0.00132485980679662
3.387,998.3,0.01374,0.001638,0.0116522022946859,0.00165624301854615
3.387,796.9,0.01407,0.001922,0.011983570964238,0.00194077948717949
3.387,627.8,0.01446,0.002195,0.0122901022838208,0.0022063479752917
3.387,505.5,0.01484,0.002412,0.0127217386142712,0.00242118581375109
3.387,398,0.01529,0.00262,0.0131825387859323,0.00262756578947368
3.387,315.5,0.01576,0.002793,0.0137209852724346,0.00279678571428571
3.387,252.4,0.01623,0.002932,0.0141221300629595,0.00293118306244654
3.387,198.6,0.01674,0.003049,0.0146521188442026,0.00304818510638298
3.387,158.4,0.01723,0.003135,0.0151451775556103,0.00313270410958904
3.387,125.6,0.01773,0.003201,0.0156189255604355,0.00320003448275862
3.387,100.4,0.0182,0.00325,0.0160128171456967,0.00325237339055794
3.387,79,0.01871,0.003296,0.0165995393483758,0.00329908256880734
3.387,63.34,0.01916,0.003335,0.0170694241373028,0.00334442738012509
3.387,50.22,0.01961,0.003385,0.0173912098732136,0.0034034430176565
3.387,38.42,0.02011,0.003465,0.0181615766479518,0.00349510015814444
3.387,31.25,0.02048,0.003562,0.0184489639819358,0.00359681319495923
3.387,24.93,0.02087,0.003713,0.0188719498339947,0.00377951009657594
3.387,19.86,0.02136,0.003954,0.0192971241545076,0.00402755806451613
3.387,15.63,0.02179,0.00429,0.0196446834804241,0.00438663941018767
3.387,12.4,0.02218,0.004717,0.0203696230090132,0.00482786102825057
3.387,9.931,0.02263,0.005239,0.0207502413391545,0.00536653265993266
3.387,7.945,0.02321,0.005889,0.021382175270337,0.00602647592695075
3.387,6.317,0.02389,0.006672,0.0221176919911172,0.00682855056179775
3.387,5.008,0.0248,0.007584,0.0230126836393805,0.00773973766343315
3.387,3.946,0.02598,0.008606,0.0245429428319585,0.00873215467820443
3.387,3.159,0.02735,0.009583,0.0255897894047623,0.00965060332871013
3.387,2.504,0.02909,0.01052,0.0271664688766121,0.0105573195521103
3.387,1.998,0.03102,0.01131,0.0292051579101154,0.0112633079434168
3.387,1.585,0.03324,0.01187,0.0316397038054838,0.0117619835841313
3.387,1.267,0.03551,0.01211,0.0334589234156791,0.0119513993174061
3.387,0.999,0.03792,0.01202,0.0360689600536534,0.0118277164524963
3.387,0.7923,0.04015,0.01161,0.0382195647851969,0.0114433205689278
3.387,0.6334,0.04211,0.011,0.0408826831988028,0.0108659313215401
3.387,0.504,0.04385,0.01026,0.0427068180045475,0.0101462268041237
3.387,0.4006,0.04535,0.009464,0.0440542984292363,0.00939106460224239
3.387,0.3167,0.04664,0.008686,0.0456248321667628,0.00864984253028264
3.387,0.252,0.04772,0.008022,0.0467242023127252,0.00800842869415807
3.387,0.2003,0.04862,0.007467,0.0476188951724811,0.0074783447905478
3.387,0.1589,0.04943,0.007043,0.0483175447731078,0.00707751682368775
3.387,0.126,0.05018,0.006768,0.0490481340739167,0.00682049063032368
3.387,0.1002,0.05091,0.006646,0.0498308886266285,0.00671479269602578
3.387,0.07945,0.05164,0.006672,0.0507095130347529,0.00675414879827167
3.387,0.06317,0.05219,0.006839,0.0514003786172277,0.00694962619372442
3.387,0.05013,0.0529,0.007172,0.0521665083062408,0.00729992544987147
3.387,0.03983,0.0537,0.007664,0.0528474271043601,0.00781004324324324
3.387,0.03163,0.05458,0.008318,0.0539774378031759,0.00848511488783141
3.387,0.02512,0.0556,0.009137,0.0548745213206489,0.00932322879177378
3.387,0.01996,0.05675,0.01012,0.0558796491383493,0.0103298673139159
3.387,0.01585,0.05807,0.01128,0.05739934859555,0.0115085888738128
3.387,0.01259,0.05954,0.01261,0.0587053163649913,0.0128459145299145
3.387,0.01,0.06117,0.01409,0.0599235557886199,0.0143548773138183
3.387,0.007944,0.06294,0.01574,0.0615231036867889,0.0160178482384824
3.387,0.00631,0.06483,0.01755,0.0639365917886592,0.0178800272851296
3.387,0.005012,0.06681,0.01958,0.0662544766064769,0.0199687720051524
3.387,0.003981,0.06884,0.02189,0.0683658457188972,0.0223441945945946
3.387,0.003162,0.07084,0.02454,0.0702998672264749,0.0251124778761062
3.387,0.002512,0.07304,0.02767,0.07256885424879,0.0283943273350471
3.387,0.001995,0.0753,0.03146,0.0748016607619698,0.03232690399137
3.387,0.001585,0.07755,0.03602,0.0780349988745095,0.0371643478260869
3.387,0.001259,0.0799,0.0417,0.0800822766868055,0.0431418461538462
3.387,0.001,0.08237,0.0488,0.082642124776502,0.0506398751882935
3.387,0.0007943,0.08522,0.05774,0.0852942281391415,0.0600927919463087
3.387,0.0006275,0.08832,0.06925,0.0889906062836953,0.0720322229869236
3.387,0.0005037,0.09156,0.08264,0.0923881353957227,0.0860633420252064
3.387,0.0003974,0.09541,0.1005,0.0961271367738976,0.104933472222222
3.387,0.0003165,0.09904,0.1219,0.100496507442997,0.127244261168385
3.387,0.0002519,0.1018,0.1486,0.103703540376773,0.15605441302485
3.387,0.0001998,0.108,0.1836,0.107515207546079,0.191794017094017
3.387,0.0001583,0.1154,0.2262,0.110281793050534,0.238465358592693
3.387,0.0001259,0.125,0.2813,0.117582115906162,0.294661643835616
3.387,9.99e-05,0.1305,0.3496,0.124936611954317,0.264326066350711
3.65,10080,0.01208,-0.005083,0.00996138852423631,-0.00489775
3.65,8016,0.01202,-0.003909,0.00991155653482267,-0.00372680081300813
3.65,6328,0.01197,-0.002878,0.00988281026756523,-0.00269675
3.65,5016,0.01198,-0.002036,0.00990234771222139,-0.00162538146103889
3.65,3984,0.01203,-0.001333,0.00995798149045103,-0.00094776892553995
3.65,3171,0.01213,-0.0007413,0.0100722556157735,-0.000722356593406593
3.65,2528,0.01225,-0.0002394,0.0102152539284276,-0.000216246108786611
3.65,1976,0.01243,0.0002345,0.0104155400655865,0.000249846315789474
3.65,1578,0.01263,0.0006026,0.0106399459586631,0.000613496901408451
3.65,1266,0.01284,0.0009106,0.0108665311463035,0.000925202725547697
3.65,998.3,0.01311,0.001202,0.0111836468838195,0.00121328190151354
3.65,796.9,0.01339,0.001441,0.0114586090263824,0.00145205128205128
3.65,627.8,0.01371,0.001662,0.0117614675795618,0.00166093445435827
3.65,505.5,0.01403,0.00182,0.0121864357262965,0.00182325718015666
3.65,398,0.0144,0.001965,0.0126000015248703,0.00196031578947368
3.65,315.5,0.01476,0.002068,0.0131422097296515,0.00206472527472527
3.65,252.4,0.01512,0.002141,0.013362581904368,0.00213655175363559
3.65,198.6,0.0155,0.002195,0.0137229107039237,0.00218850425531915
3.65,158.4,0.01585,0.002224,0.0141018926891528,0.00222088219178082
3.65,125.6,0.01622,0.002242,0.01450209817453,0.0022404
3.65,100.4,0.01656,0.002253,0.0148264945455329,0.00224903004291845
3.65,79,0.01693,0.002255,0.0153110434318782,0.00225184511602806
3.65,63.34,0.01726,0.002251,0.0157807437013756,0.00224683808200139
3.65,50.22,0.01762,0.00224,0.0161043208078896,0.00223309951845907
3.65,38.42,0.01803,0.002217,0.0167216742414096,0.00220765419082762
3.65,31.25,0.01835,0.002188,0.0168659370310945,0.00217607412898443
3.65,24.93,0.0187,0.00214,0.0173634557483426,0.00212252502194908
3.65,19.86,0.01905,0.00207,0.0175173207473202,0.00204514193548387
3.65,15.63,0.01941,0.001966,0.017797469514538,0.00193958445040214
3.65,12.4,0.01973,0.00184,0.0183983998278822,0.00181637374978066
3.65,9.931,0.02,0.001702,0.0185041402909623,0.00168260471380471
3.65,7.945,0.02023,0.001556,0.018655638458883,0.00154098782512452
3.65,6.317,0.02044,0.001409,0.0189394573886097,0.00139857677902622
3.65,5.008,0.02062,0.001272,0.0190891029015829,0.00126435301560523
3.65,3.946,0.02077,0.001147,0.0195503935550871,0.00114449107625744
3.65,3.159,0.02089,0.00105,0.0194435886058795,0.00104215762829404
3.65,2.504,0.021,0.0009549,0.0194848881331338,0.000961933247200689
3.65,1.998,0.02109,0.0008939,0.019709325073125,0.000900170511425462
3.65,1.585,0.02117,0.0008555,0.0199340044313817,0.000860622708618331
3.65,1.267,0.02125,0.000835,0.0198458056053306,0.000843235836177474
3.65,0.999,0.02133,0.0008329,0.0198572652531543,0.000844879924162629
3.65,0.7923,0.02141,0.0008525,0.0199031203036268,0.000866483096280088
3.65,0.6334,0.02148,0.0008923,0.0202341835502056,0.000909159451959764
3.65,0.504,0.02157,0.0009553,0.0203510587917573,0.000974397852233677
3.65,0.4006,0.02166,0.00104,0.0202334463943702,0.00106388932194341
3.65,0.3167,0.02176,0.001152,0.0202827351941056,0.00118115074024226
3.65,0.252,0.02187,0.00129,0.020399000469395,0.00131930841924399
3.65,0.2003,0.022,0.001453,0.0204981204586109,0.00149158002148228
3.65,0.1589,0.02214,0.001653,0.0209164371463339,0.00169538223418573
3.65,0.126,0.02234,0.001888,0.0212431982451026,0.00193996422487223
3.65,0.1002,0.02256,0.002165,0.021297721270559,0.00222387110633727
3.65,0.07945,0.02279,0.002494,0.0213173539774835,0.00256117202268431
3.65,0.06317,0.02298,0.002872,0.0215395444807564,0.0029487517053206
3.65,0.05013,0.02328,0.003313,0.0219755607184195,0.00340108654670094
3.65,0.03983,0.02364,0.003819,0.0223964373299766,0.00391652432432432
3.65,0.03163,0.02406,0.004397,0.0231611616075913,0.00450800067980965
3.65,0.02512,0.02456,0.005055,0.0234993198301049,0.00517909254498715
3.65,0.01996,0.02515,0.005799,0.0240740789273417,0.00592780258899676
3.65,0.01585,0.02586,0.006623,0.0248461947360212,0.00676376255088195
3.65,0.01259,0.02669,0.007529,0.0256832237535741,0.00766898632478633
3.65,0.01,0.02767,0.0085,0.0268618689515371,0.00864115023676281
3.65,0.007944,0.02878,0.009524,0.0278754125055842,0.00967565311653117
3.65,0.00631,0.03,0.01061,0.0290655615237661,0.0107701200545703
3.65,0.005012,0.03133,0.01176,0.0307997890905367,0.0119419965650494
3.65,0.003981,0.03274,0.013,0.0319202773962938,0.0132034
3.65,0.003162,0.0342,0.01435,0.0336021427394993,0.0145945132743363
3.65,0.002512,0.03574,0.01586,0.0351895882563831,0.016149057412168
3.65,0.001995,0.0373,0.01758,0.0367778803516319,0.0179179611650485
3.65,0.001585,0.03887,0.01955,0.0383765103242296,0.0199753804347826
3.65,0.001259,0.04044,0.02188,0.0400034286181249,0.0224310598290598
3.65,0.001,0.04201,0.02472,0.041945370054842,0.0254135915644502
3.65,0.0007943,0.04358,0.02822,0.043271936805064,0.0291984617449664
3.65,0.0006275,0.04525,0.03283,0.0451040957359934,0.0339713282863042
3.65,0.0005037,0.04688,0.03824,0.0468133475145302,0.0397006040851804
3.65,0.0003974,0.04873,0.0456,0.0489735320601921,0.0475866773504273
3.65,0.0003165,0.05076,0.0547,0.0514051494686798,0.0568592783505155
3.65,0.0002519,0.05185,0.06585,0.0538374922213394,0.0688046101113967
3.65,0.0001998,0.05356,0.08018,0.0566130213910747,0.0844857692307692
3.65,0.0001583,0.05742,0.09933,0.0597823942847155,0.104282571041949
3.65,0.0001259,0.06139,0.1231,0.0648814404048423,0.128772945205479
3.65,9.99e-05,0.06385,0.1524,0.0745328813743509,0.160850969409737
3.65,7.948e-05,0.0699,0.1905,0.0754825966507316,0.199706518196632
3.65,6.308e-05,0.07463,0.2377,0.0798190850330222,0.25026318475672
3.65,5.009e-05,0.08073,0.2976,0.0873424081936577,0.313572774193548
3.65,3.983e-05,0.08909,0.3735,0.0977726123887314,0.393311857065512
3.65,3.162e-05,0.09979,0.4699,0.110912205223098,0.49483609789259
3.65,2.512e-05,0.1136,0.5909,0.127659664518899,0.623014824335904
3.65,1.995e-05,0.1289,0.7448,0.141294000832805,0.781526321467098
3.65,1.585e-05,0.1473,0.9327,0.156813464351826,0.981107065217391
3.65,1.259e-05,0.1617,1.169,0.169988316729586,1.24488219107845
3.65,9.999e-06,0.2005,1.493,0.184457364562265,1.09647532575219
3.879,10080,0.01209,-0.004955,0.00996477749954906,-0.00497809497206704
3.879,8016,0.01202,-0.003778,0.00991637595651282,-0.0038028156424581
3.879,6328,0.01199,-0.002754,0.00989101158267046,-0.00245862796489221
3.879,5016,0.01201,-0.001909,0.00991029036992387,-0.00162534399046256
3.879,3984,0.01208,-0.001202,0.00997215912548403,-0.000930214540376839
3.879,3171,0.01218,-0.0006031,0.0100874432711366,-0.000581986991758241
3.879,2528,0.01232,-9.162e-05,0.0102425750280492,-6.95983263598327e-05
3.879,1976,0.01252,0.0003884,0.0104485567270352,0.000411989936842105
3.879,1578,0.01273,0.0007751,0.0106703638838131,0.000790099718309859
3.879,1266,0.01297,0.001105,0.0109098290506461,0.00112272946351561
3.879,998.3,0.01326,0.001421,0.011237870614334,0.00143427499467065
3.879,796.9,0.01356,0.001682,0.0115156100193671,0.00169496923076923
3.879,627.8,0.01392,0.001925,0.0118267414173473,0.00193733287577213
3.879,505.5,0.01427,0.002122,0.0122727813698683,0.00212564012184508
3.879,398,0.01468,0.002302,0.0126900949964789,0.00230361842105263
3.879,315.5,0.0151,0.002443,0.0132182998016832,0.00244195535714286
3.879,252.4,0.01552,0.002549,0.0135405790885386,0.00254447818648417
3.879,198.6,0.01597,0.002631,0.0140162287896124,0.00262626595744681
3.879,158.4,0.0164,0.002684,0.014447191000902,0.0026794602739726
3.879,125.6,0.01684,0.002719,0.0148995346861009,0.00271510344827586
3.879,100.4,0.01726,0.002739,0.0152350412851194,0.00273630472103004
3.879,79,0.0177,0.002751,0.0157178091087727,0.00274997139773341
3.879,63.34,0.0181,0.002758,0.0161608490141708,0.00275752953439889
3.879,50.22,0.01852,0.002763,0.016535294817096,0.00276431781701445
3.879,38.42,0.01899,0.00277,0.0171983972871554,0.00277295255666842
3.879,31.25,0.01937,0.002779,0.0174355275027865,0.00277903558191253
3.879,24.93,0.01979,0.002787,0.0180058344690533,0.00278343898156277
3.879,19.86,0.02024,0.002787,0.0183125277359547,0.00277119032258065
3.879,15.63,0.02073,0.002758,0.0187123772496425,0.00273199865951743
3.879,12.4,0.02119,0.00269,0.0193570350403585,0.00265994946481839
3.879,9.931,0.02162,0.002585,0.0195943480152796,0.00255532727272727
3.879,7.945,0.02203,0.002447,0.0199791299831489,0.00241904205866076
3.879,6.317,0.0224,0.002283,0.0204394397923899,0.00226019850187266
3.879,5.008,0.02272,0.00211,0.0207642726600886,0.00209473808519612
